
T142C 000:396 SEGGER J-Link V4.80g Log File (0000ms, 0277ms total)
T142C 000:396 DLL Compiled: Feb 13 2014 20:50:02 (0001ms, 0278ms total)
T142C 000:396 Logging started @ 2019-03-14 21:25 (0001ms, 0278ms total)
T142C 000:397 JLINK_SetWarnOutHandler(...) (0000ms, 0278ms total)
T142C 000:397 JLINK_OpenEx(...)
Firmware: J-Link V9 compiled Mar  2 2018 17:07:57
Hardware: V9.40
S/N: 59402926
Feature(s): RDI, GDB, FlashDL, FlashBP, JFlash  returns O.K. (0269ms, 0547ms total)
T142C 000:666 JLINK_SetErrorOutHandler(...) (0000ms, 0547ms total)
T142C 000:666 JLINK_ExecCommand("ProjectFile = "F:\kaka\KAKAOS\C\windows\Project\RVMDK£¨uv5£©\JLinkSettings.ini"", ...)  returns 0x00 (0000ms, 0547ms total)
T142C 000:666 JLINK_ExecCommand("Device = STM32F103ZE", ...)Device "STM32F103ZE" selected (512 KB flash, 64 KB RAM).  returns 0x00 (0003ms, 0550ms total)
T142C 000:669 JLINK_ExecCommand("DisableConnectionTimeout", ...)  returns 0x01 (0000ms, 0550ms total)
T142C 000:669 JLINK_GetHardwareVersion()  returns 0x16F30 (0000ms, 0550ms total)
T142C 000:669 JLINK_GetDLLVersion()  returns 48007 (0000ms, 0550ms total)
T142C 000:669 JLINK_GetFirmwareString(...) (0000ms, 0550ms total)
T142C 000:670 JLINK_GetDLLVersion()  returns 48007 (0000ms, 0550ms total)
T142C 000:670 JLINK_GetCompileDateTime() (0000ms, 0550ms total)
T142C 000:670 JLINK_GetFirmwareString(...) (0000ms, 0550ms total)
T142C 000:670 JLINK_GetHardwareVersion()  returns 0x16F30 (0000ms, 0550ms total)
T142C 000:670 JLINK_TIF_Select(JLINKARM_TIF_JTAG)  returns 0x00 (0015ms, 0565ms total)
T142C 000:685 JLINK_SetSpeed(2000) (0002ms, 0567ms total)
T142C 000:687 JLINK_GetIdData(...) >0x2F8 JTAG>TotalIRLen = 9, IRPrint = 0x0011 >0x30 JTAG> >0x210 JTAG> >0x40 JTAG> >0x40 JTAG> >0x40 JTAG> >0x30 JTAG> >0x40 JTAG> >0x40 JTAG> >0x40 JTAG> >0x40 JTAG> >0x40 JTAG> >0x40 JTAG> >0x40 JTAG> >0x40 JTAG> >0x2F8 JTAG>TotalIRLen = 9, IRPrint = 0x0011 >0x30 JTAG> >0x210 JTAG> >0x70 JTAG> >0x40 JTAG> >0x40 JTAG> >0x40 JTAG> >0x50 JTAG> >0x80 JTAG> >0x40 JTAG> >0x30 JTAG> >0x40 JTAG> >0x40 JTAG> >0x30 JTAG> >0x40 JTAG> >0x50 JTAG>
Found Cortex-M3 r1p1, Little endian. -- CPU_WriteMem(4 bytes @ 0xE0002000) -- CPU_ReadMem(4 bytes @ 0xE000EDF0) -- CPU_ReadMem(4 bytes @ 0xE0002000)FPUnit: 6 code (BP) slots and 2 literal slots -- CPU_ReadMem(4 bytes @ 0xE000EDFC) -- CPU_ReadMem(4 bytes @ 0xE0001000) -- CPU_WriteMem(4 bytes @ 0xE0001000) -- CPU_ReadMem(4 bytes @ 0xE00FF010)TPIU fitted. -- CPU_ReadMem(4 bytes @ 0xE00FF014)ETM fitted. -- CPU_ReadMem(4 bytes @ 0xE00FF018) ScanLen=9 NumDevices=2 aId[0]=0x3BA00477 aIrRead[0]=0 aScanLen[0]=0
 aScanRead[0]=0 (0049ms, 0616ms total)
T142C 000:736 JLINK_JTAG_GetDeviceID(DeviceIndex = 0)  returns 0x3BA00477 (0000ms, 0616ms total)
T142C 000:736 JLINK_JTAG_GetDeviceInfo(DeviceIndex = 0)  returns 0x00 (0000ms, 0616ms total)
T142C 000:736 JLINK_JTAG_GetDeviceID(DeviceIndex = 1)  returns 0x6414041 (0000ms, 0616ms total)
T142C 000:736 JLINK_JTAG_GetDeviceInfo(DeviceIndex = 1)  returns 0x00 (0000ms, 0616ms total)
T142C 000:736 JLINK_GetDeviceFamily()  returns 3 (0000ms, 0616ms total)
T142C 000:736 JLINK_ReadMem (0xE00FFFF0, 0x0010 Bytes, ...) -- CPU is running -- CPU_ReadMem(16 bytes @ 0xE00FFFF0) -- Data:  0D 00 00 00 10 00 00 00 05 00 00 00 B1 00 00 00  returns 0x00 (0002ms, 0618ms total)
T142C 000:738 JLINK_ReadMem (0xE00FFFD0, 0x0020 Bytes, ...) -- CPU is running -- CPU_ReadMem(32 bytes @ 0xE00FFFD0) -- Data:  00 00 00 00 00 00 00 00 00 00 00 00 00 00 00 00 ...  returns 0x00 (0001ms, 0619ms total)
T142C 000:739 JLINK_ReadMem (0xE00FF000, 0x0018 Bytes, ...) -- CPU is running -- CPU_ReadMem(24 bytes @ 0xE00FF000) -- Data:  03 F0 F0 FF 03 20 F0 FF 03 30 F0 FF 03 10 F0 FF ...  returns 0x00 (0001ms, 0620ms total)
T142C 000:740 JLINK_ReadMemU32(0xE000ED00, 0x0001 Items, ...) -- CPU is running -- CPU_ReadMem(4 bytes @ 0xE000ED00) -- Data:  31 C2 1F 41  returns 0x01 (0001ms, 0621ms total)
T142C 000:741 JLINK_SetResetType(JLINKARM_RESET_TYPE_NORMAL)  returns JLINKARM_RESET_TYPE_NORMAL (0000ms, 0621ms total)
T142C 000:741 JLINK_Reset() -- CPU is running -- CPU_WriteMem(4 bytes @ 0xE000EDF0) -- CPU is running -- CPU_WriteMem(4 bytes @ 0xE000EDFC) -- CPU is running -- CPU_WriteMem(4 bytes @ 0xE000ED0C) -- CPU is running -- CPU_ReadMem(4 bytes @ 0xE000EDF0) -- CPU is running -- CPU_ReadMem(4 bytes @ 0xE000EDF0) -- CPU is running -- CPU_WriteMem(4 bytes @ 0xE000EDF0) -- CPU is running -- CPU_WriteMem(4 bytes @ 0xE000EDFC) -- CPU is running -- CPU_ReadMem(4 bytes @ 0xE000EDF0) >0x80 JTAG> >0x40 JTAG> >0x30 JTAG>
 >0x40 JTAG> >0x50 JTAG> >0x40 JTAG> -- CPU_WriteMem(4 bytes @ 0xE000EDFC) -- CPU_WriteMem(4 bytes @ 0xE0001028) -- CPU_WriteMem(4 bytes @ 0xE0001038) -- CPU_WriteMem(4 bytes @ 0xE0001048) -- CPU_WriteMem(4 bytes @ 0xE0001058) -- CPU_WriteMem(4 bytes @ 0xE0002000) -- CPU_ReadMem(4 bytes @ 0xE000EDFC) -- CPU_ReadMem(4 bytes @ 0xE0001000) (0040ms, 0661ms total)
T142C 000:781 JLINK_ReadReg(R15 (PC))  returns 0x08015314 (0000ms, 0661ms total)
T142C 000:781 JLINK_ReadReg(XPSR)  returns 0x01000000 (0000ms, 0661ms total)
T142C 000:781 JLINK_Halt()  returns 0x00 (0000ms, 0661ms total)
T142C 000:781 JLINK_IsHalted()  returns TRUE (0000ms, 0661ms total)
T142C 000:781 JLINK_ReadMemU32(0xE000EDF0, 0x0001 Items, ...) -- CPU_ReadMem(4 bytes @ 0xE000EDF0) -- Data:  03 00 03 00  returns 0x01 (0001ms, 0662ms total)
T142C 000:782 JLINK_WriteU32(0xE000EDF0, 0xA05F0003) -- CPU_WriteMem(4 bytes @ 0xE000EDF0)  returns 0x00 (0001ms, 0663ms total)
T142C 000:783 JLINK_WriteU32(0xE000EDFC, 0x01000000) -- CPU_WriteMem(4 bytes @ 0xE000EDFC)  returns 0x00 (0001ms, 0664ms total)
T142C 000:785 JLINK_GetHWStatus(...)  returns 0x00 (0000ms, 0664ms total)
T142C 000:786 JLINK_GetNumBPUnits(Type = 0xFFFFFF00)  returns 0x06 (0000ms, 0664ms total)
T142C 000:786 JLINK_GetNumBPUnits(Type = 0xF0)  returns 0x2000 (0000ms, 0664ms total)
T142C 000:786 JLINK_GetNumWPUnits()  returns 0x04 (0000ms, 0664ms total)
T142C 000:786 JLINK_GetSpeed()  returns 0x7D0 (0000ms, 0664ms total)
T142C 000:786 JLINK_ReadMemU32(0xE000E004, 0x0001 Items, ...) -- CPU_ReadMem(4 bytes @ 0xE000E004) -- Data:  01 00 00 00  returns 0x01 (0002ms, 0666ms total)
T142C 000:788 JLINK_ReadMemU32(0xE000E004, 0x0001 Items, ...) -- CPU_ReadMem(4 bytes @ 0xE000E004) -- Data:  01 00 00 00  returns 0x01 (0001ms, 0667ms total)
T142C 000:789 JLINK_WriteMem(0xE0001000, 0x001C Bytes, ...) -- Data:  01 00 00 00 00 00 00 00 00 00 00 00 00 00 00 00 ... -- CPU_WriteMem(28 bytes @ 0xE0001000)  returns 0x1C (0001ms, 0668ms total)
T142C 000:790 JLINK_ReadMem (0xE0001000, 0x001C Bytes, ...) -- CPU_ReadMem(28 bytes @ 0xE0001000) -- Data:  01 00 00 40 00 00 00 00 00 00 00 00 00 00 00 00 ...  returns 0x00 (0001ms, 0669ms total)
T142C 000:791 JLINK_ReadReg(R15 (PC))  returns 0x08015314 (0000ms, 0669ms total)
T142C 000:791 JLINK_ReadReg(XPSR)  returns 0x01000000 (0000ms, 0669ms total)
T142C 000:887 JLINK_SetResetType(JLINKARM_RESET_TYPE_NORMAL)  returns JLINKARM_RESET_TYPE_NORMAL (0000ms, 0669ms total)
T142C 000:887 JLINK_Reset() -- CPU_WriteMem(4 bytes @ 0xE000EDF0) -- CPU_WriteMem(4 bytes @ 0xE000EDFC) -- CPU_WriteMem(4 bytes @ 0xE000ED0C) -- CPU_ReadMem(4 bytes @ 0xE000EDF0) -- CPU_ReadMem(4 bytes @ 0xE000EDF0) -- CPU_WriteMem(4 bytes @ 0xE000EDF0) -- CPU_WriteMem(4 bytes @ 0xE000EDFC) -- CPU is running -- CPU_ReadMem(4 bytes @ 0xE000EDF0) >0x80 JTAG> >0x40 JTAG> >0x30 JTAG> >0x40 JTAG> >0x50 JTAG> >0x40 JTAG> -- CPU_WriteMem(4 bytes @ 0xE000EDFC) -- CPU_WriteMem(4 bytes @ 0xE0001028)
 -- CPU_WriteMem(4 bytes @ 0xE0001038) -- CPU_WriteMem(4 bytes @ 0xE0001048) -- CPU_WriteMem(4 bytes @ 0xE0001058) -- CPU_WriteMem(4 bytes @ 0xE0002000) -- CPU_ReadMem(4 bytes @ 0xE000EDFC) -- CPU_ReadMem(4 bytes @ 0xE0001000) (0040ms, 0709ms total)
T142C 000:927 JLINK_ReadReg(R15 (PC))  returns 0x08015314 (0000ms, 0709ms total)
T142C 000:927 JLINK_ReadReg(XPSR)  returns 0x01000000 (0000ms, 0709ms total)
T142C 000:927 JLINK_ReadMem (0x08015314, 0x003C Bytes, ...) -- CPU_ReadMem(128 bytes @ 0x08015300) -- Updating C cache (128 bytes @ 0x08015300) -- Read from C cache (60 bytes @ 0x08015314) -- Data:  00 21 03 E0 0A 4B 5B 58 43 50 04 31 09 48 0A 4B ...  returns 0x00 (0002ms, 0711ms total)
T142C 009:620 JLINK_ReadMem (0x20000600, 0x0008 Bytes, ...) -- CPU_ReadMem(64 bytes @ 0x20000600) -- Updating C cache (64 bytes @ 0x20000600) -- Read from C cache (8 bytes @ 0x20000600) -- Data:  BB 00 00 00 00 00 00 00  returns 0x00 (0003ms, 0714ms total)
T142C 009:630 JLINK_ReadMem (0x20000A1C, 0x0004 Bytes, ...) -- CPU_ReadMem(64 bytes @ 0x20000A00) -- Updating C cache (64 bytes @ 0x20000A00) -- Read from C cache (4 bytes @ 0x20000A1C) -- Data:  60 02 00 20  returns 0x00 (0001ms, 0715ms total)
T142C 009:639 JLINK_ReadMem (0x20000A18, 0x0004 Bytes, ...) -- Read from C cache (4 bytes @ 0x20000A18) -- Data:  60 02 00 20  returns 0x00 (0000ms, 0715ms total)
T0EB8 012:311 JLINK_SetBPEx(Addr = 0x0800DF84, Type = 0xFFFFFFF2)  returns 0x00000001 (0001ms, 0716ms total)
T0EB8 012:312 JLINK_Go() -- CPU_WriteMem(4 bytes @ 0xE0002008) -- CPU_WriteMem(4 bytes @ 0xE000200C) -- CPU_WriteMem(4 bytes @ 0xE0002010) -- CPU_WriteMem(4 bytes @ 0xE0002014) -- CPU_WriteMem(4 bytes @ 0xE0002018) -- CPU_WriteMem(4 bytes @ 0xE000201C) -- CPU_WriteMem(4 bytes @ 0xE0001004) (0011ms, 0727ms total)
T0EB8 012:423 JLINK_IsHalted()  returns FALSE (0001ms, 0728ms total)
T0EB8 012:524 JLINK_IsHalted()  returns FALSE (0001ms, 0728ms total)
T0EB8 012:625 JLINK_IsHalted()  returns FALSE (0001ms, 0728ms total)
T0EB8 012:726 JLINK_IsHalted()  returns TRUE (0004ms, 0731ms total)
T0EB8 012:730 JLINK_Halt()  returns 0x00 (0000ms, 0727ms total)
T0EB8 012:730 JLINK_IsHalted()  returns TRUE (0000ms, 0727ms total)
T0EB8 012:730 JLINK_IsHalted()  returns TRUE (0000ms, 0727ms total)
T0EB8 012:730 JLINK_IsHalted()  returns TRUE (0000ms, 0727ms total)
T0EB8 012:730 JLINK_ReadReg(R15 (PC))  returns 0x0800DF84 (0000ms, 0727ms total)
T0EB8 012:730 JLINK_ReadReg(XPSR)  returns 0x61000000 (0000ms, 0727ms total)
T0EB8 012:730 JLINK_ClrBPEx(BPHandle = 0x00000001)  returns 0x00 (0000ms, 0727ms total)
T0EB8 012:730 JLINK_ReadMemU32(0xE000ED30, 0x0001 Items, ...) -- CPU_ReadMem(4 bytes @ 0xE000ED30) -- Data:  02 00 00 00  returns 0x01 (0003ms, 0730ms total)
T0EB8 012:733 JLINK_ReadMemU32(0xE0001028, 0x0001 Items, ...) -- CPU_ReadMem(4 bytes @ 0xE0001028) -- Data:  00 00 00 00  returns 0x01 (0001ms, 0731ms total)
T0EB8 012:734 JLINK_ReadMemU32(0xE0001038, 0x0001 Items, ...) -- CPU_ReadMem(4 bytes @ 0xE0001038) -- Data:  00 02 00 00  returns 0x01 (0001ms, 0732ms total)
T0EB8 012:735 JLINK_ReadMemU32(0xE0001048, 0x0001 Items, ...) -- CPU_ReadMem(4 bytes @ 0xE0001048) -- Data:  00 00 00 00  returns 0x01 (0001ms, 0733ms total)
T0EB8 012:736 JLINK_ReadMemU32(0xE0001058, 0x0001 Items, ...) -- CPU_ReadMem(4 bytes @ 0xE0001058) -- Data:  00 00 00 00  returns 0x01 (0001ms, 0734ms total)
T0EB8 012:737 JLINK_ReadReg(R0)  returns 0x0000001C (0000ms, 0734ms total)
T0EB8 012:737 JLINK_ReadReg(R1)  returns 0x0000001C (0000ms, 0734ms total)
T0EB8 012:737 JLINK_ReadReg(R2)  returns 0x00000000 (0000ms, 0734ms total)
T0EB8 012:737 JLINK_ReadReg(R3)  returns 0x00000000 (0000ms, 0734ms total)
T0EB8 012:737 JLINK_ReadReg(R4)  returns 0x00000000 (0000ms, 0734ms total)
T0EB8 012:737 JLINK_ReadReg(R5)  returns 0x05050505 (0000ms, 0734ms total)
T0EB8 012:737 JLINK_ReadReg(R6)  returns 0x06060606 (0000ms, 0734ms total)
T0EB8 012:737 JLINK_ReadReg(R7)  returns 0x200023D0 (0000ms, 0734ms total)
T0EB8 012:737 JLINK_ReadReg(R8)  returns 0x08080808 (0000ms, 0734ms total)
T0EB8 012:737 JLINK_ReadReg(R9)  returns 0x09090909 (0000ms, 0734ms total)
T0EB8 012:737 JLINK_ReadReg(R10)  returns 0x10101010 (0000ms, 0734ms total)
T0EB8 012:737 JLINK_ReadReg(R11)  returns 0x0000001C (0000ms, 0734ms total)
T0EB8 012:737 JLINK_ReadReg(R12)  returns 0x00000000 (0000ms, 0734ms total)
T0EB8 012:737 JLINK_ReadReg(R13 (SP))  returns 0x200023D0 (0000ms, 0734ms total)
T0EB8 012:737 JLINK_ReadReg(R14)  returns 0x0800D8B1 (0000ms, 0734ms total)
T0EB8 012:737 JLINK_ReadReg(R15 (PC))  returns 0x0800DF84 (0000ms, 0734ms total)
T0EB8 012:737 JLINK_ReadReg(XPSR)  returns 0x61000000 (0000ms, 0734ms total)
T0EB8 012:737 JLINK_ReadReg(MSP)  returns 0x2000FFC0 (0000ms, 0734ms total)
T0EB8 012:737 JLINK_ReadReg(PSP)  returns 0x200023D0 (0000ms, 0734ms total)
T0EB8 012:737 JLINK_ReadReg(CFBP)  returns 0x02000000 (0000ms, 0734ms total)
T142C 012:738 JLINK_ReadMem (0x20000600, 0x0008 Bytes, ...) -- CPU_ReadMem(64 bytes @ 0x20000600) -- Updating C cache (64 bytes @ 0x20000600) -- Read from C cache (8 bytes @ 0x20000600) -- Data:  1C 00 00 00 00 00 00 00  returns 0x00 (0001ms, 0735ms total)
T142C 012:739 JLINK_ReadMem (0x20000A1C, 0x0004 Bytes, ...) -- CPU_ReadMem(64 bytes @ 0x20000A00) -- Updating C cache (64 bytes @ 0x20000A00) -- Read from C cache (4 bytes @ 0x20000A1C) -- Data:  D0 09 00 20  returns 0x00 (0002ms, 0737ms total)
T142C 012:741 JLINK_ReadMem (0x20000A18, 0x0004 Bytes, ...) -- Read from C cache (4 bytes @ 0x20000A18) -- Data:  D0 09 00 20  returns 0x00 (0000ms, 0737ms total)
T142C 012:746 JLINK_ReadMem (0x0800DF7C, 0x003C Bytes, ...) -- CPU_ReadMem(128 bytes @ 0x0800DF40) -- Updating C cache (128 bytes @ 0x0800DF40) -- Read from C cache (60 bytes @ 0x0800DF7C) -- Data:  03 20 FC F7 35 F8 4E E0 07 F1 0C 03 1A 46 01 21 ...  returns 0x00 (0002ms, 0739ms total)
T0EB8 017:328 JLINK_Step() -- Read from C cache (2 bytes @ 0x0800DF84) -- CPU_ReadMem(4 bytes @ 0xE0001004) -- Read from C cache (2 bytes @ 0x0800DF86) -- Simulated  returns 0x00 (0003ms, 0742ms total)
T0EB8 017:331 JLINK_ReadReg(R15 (PC))  returns 0x0800DF88 (0000ms, 0742ms total)
T0EB8 017:331 JLINK_ReadReg(XPSR)  returns 0x61000000 (0000ms, 0742ms total)
T0EB8 017:331 JLINK_Step() -- Read from C cache (2 bytes @ 0x0800DF88) -- Simulated  returns 0x00 (0000ms, 0742ms total)
T0EB8 017:331 JLINK_ReadReg(R15 (PC))  returns 0x0800DF8A (0000ms, 0742ms total)
T0EB8 017:331 JLINK_ReadReg(XPSR)  returns 0x61000000 (0000ms, 0742ms total)
T0EB8 017:331 JLINK_Step() -- Read from C cache (2 bytes @ 0x0800DF8A) -- Simulated  returns 0x00 (0001ms, 0743ms total)
T0EB8 017:332 JLINK_ReadReg(R15 (PC))  returns 0x0800DF8C (0000ms, 0743ms total)
T0EB8 017:332 JLINK_ReadReg(XPSR)  returns 0x21000000 (0000ms, 0743ms total)
T0EB8 017:332 JLINK_Step() -- Read from C cache (2 bytes @ 0x0800DF8C) -- CPU_ReadMem(64 bytes @ 0x0800E000) -- Updating C cache (64 bytes @ 0x0800E000) -- Read from C cache (4 bytes @ 0x0800E034) -- Simulated  returns 0x00 (0001ms, 0744ms total)
T0EB8 017:333 JLINK_ReadReg(R15 (PC))  returns 0x0800DF8E (0000ms, 0744ms total)
T0EB8 017:333 JLINK_ReadReg(XPSR)  returns 0x21000000 (0000ms, 0744ms total)
T0EB8 017:333 JLINK_SetBPEx(Addr = 0x0800DF92, Type = 0xFFFFFFF2)  returns 0x00000002 (0000ms, 0744ms total)
T0EB8 017:333 JLINK_SetBPEx(Addr = 0x0800DF84, Type = 0xFFFFFFF2)  returns 0x00000003 (0000ms, 0744ms total)
T0EB8 017:333 JLINK_Go() -- CPU_WriteMem(4 bytes @ 0xE0002008) -- CPU_WriteMem(4 bytes @ 0xE000200C) -- CPU_WriteMem(4 bytes @ 0xE0001004) (0007ms, 0751ms total)
T0EB8 017:440 JLINK_IsHalted()  returns TRUE (0004ms, 0755ms total)
T0EB8 017:444 JLINK_Halt()  returns 0x00 (0000ms, 0751ms total)
T0EB8 017:444 JLINK_IsHalted()  returns TRUE (0000ms, 0751ms total)
T0EB8 017:444 JLINK_IsHalted()  returns TRUE (0000ms, 0751ms total)
T0EB8 017:444 JLINK_IsHalted()  returns TRUE (0000ms, 0751ms total)
T0EB8 017:444 JLINK_ReadReg(R15 (PC))  returns 0x0800DF92 (0000ms, 0751ms total)
T0EB8 017:444 JLINK_ReadReg(XPSR)  returns 0x01000000 (0000ms, 0751ms total)
T0EB8 017:444 JLINK_ClrBPEx(BPHandle = 0x00000002)  returns 0x00 (0000ms, 0751ms total)
T0EB8 017:444 JLINK_ClrBPEx(BPHandle = 0x00000003)  returns 0x00 (0000ms, 0751ms total)
T0EB8 017:444 JLINK_ReadMemU32(0xE000ED30, 0x0001 Items, ...) -- CPU_ReadMem(4 bytes @ 0xE000ED30) -- Data:  02 00 00 00  returns 0x01 (0001ms, 0752ms total)
T0EB8 017:445 JLINK_ReadMemU32(0xE0001028, 0x0001 Items, ...) -- CPU_ReadMem(4 bytes @ 0xE0001028) -- Data:  00 00 00 00  returns 0x01 (0001ms, 0753ms total)
T0EB8 017:446 JLINK_ReadMemU32(0xE0001038, 0x0001 Items, ...) -- CPU_ReadMem(4 bytes @ 0xE0001038) -- Data:  00 02 00 00  returns 0x01 (0001ms, 0754ms total)
T0EB8 017:447 JLINK_ReadMemU32(0xE0001048, 0x0001 Items, ...) -- CPU_ReadMem(4 bytes @ 0xE0001048) -- Data:  00 00 00 00  returns 0x01 (0001ms, 0755ms total)
T0EB8 017:448 JLINK_ReadMemU32(0xE0001058, 0x0001 Items, ...) -- CPU_ReadMem(4 bytes @ 0xE0001058) -- Data:  00 00 00 00  returns 0x01 (0001ms, 0756ms total)
T0EB8 017:449 JLINK_ReadReg(R0)  returns 0x00000000 (0000ms, 0756ms total)
T0EB8 017:449 JLINK_ReadReg(R1)  returns 0x200010A8 (0000ms, 0756ms total)
T0EB8 017:449 JLINK_ReadReg(R2)  returns 0x00000000 (0000ms, 0756ms total)
T0EB8 017:449 JLINK_ReadReg(R3)  returns 0x00000000 (0000ms, 0756ms total)
T0EB8 017:449 JLINK_ReadReg(R4)  returns 0x00000000 (0000ms, 0756ms total)
T0EB8 017:449 JLINK_ReadReg(R5)  returns 0x05050505 (0000ms, 0756ms total)
T0EB8 017:449 JLINK_ReadReg(R6)  returns 0x06060606 (0000ms, 0756ms total)
T0EB8 017:449 JLINK_ReadReg(R7)  returns 0x200023D0 (0000ms, 0756ms total)
T0EB8 017:449 JLINK_ReadReg(R8)  returns 0x08080808 (0000ms, 0756ms total)
T0EB8 017:449 JLINK_ReadReg(R9)  returns 0x09090909 (0000ms, 0756ms total)
T0EB8 017:449 JLINK_ReadReg(R10)  returns 0x10101010 (0000ms, 0756ms total)
T0EB8 017:449 JLINK_ReadReg(R11)  returns 0x0000001C (0000ms, 0756ms total)
T0EB8 017:449 JLINK_ReadReg(R12)  returns 0x00000000 (0000ms, 0756ms total)
T0EB8 017:449 JLINK_ReadReg(R13 (SP))  returns 0x200023D0 (0000ms, 0756ms total)
T0EB8 017:450 JLINK_ReadReg(R14)  returns 0x08010779 (0000ms, 0757ms total)
T0EB8 017:450 JLINK_ReadReg(R15 (PC))  returns 0x0800DF92 (0000ms, 0757ms total)
T0EB8 017:450 JLINK_ReadReg(XPSR)  returns 0x01000000 (0000ms, 0757ms total)
T0EB8 017:450 JLINK_ReadReg(MSP)  returns 0x2000FFC0 (0000ms, 0757ms total)
T0EB8 017:450 JLINK_ReadReg(PSP)  returns 0x200023D0 (0000ms, 0757ms total)
T0EB8 017:450 JLINK_ReadReg(CFBP)  returns 0x02000000 (0000ms, 0757ms total)
T142C 017:450 JLINK_ReadMem (0x20000600, 0x0008 Bytes, ...) -- CPU_ReadMem(64 bytes @ 0x20000600) -- Updating C cache (64 bytes @ 0x20000600) -- Read from C cache (8 bytes @ 0x20000600) -- Data:  1C 00 00 00 00 00 00 00  returns 0x00 (0001ms, 0758ms total)
T142C 017:452 JLINK_ReadMem (0x20000A1C, 0x0004 Bytes, ...) -- CPU_ReadMem(64 bytes @ 0x20000A00) -- Updating C cache (64 bytes @ 0x20000A00) -- Read from C cache (4 bytes @ 0x20000A1C) -- Data:  D0 09 00 20  returns 0x00 (0001ms, 0759ms total)
T142C 017:454 JLINK_ReadMem (0x20000A18, 0x0004 Bytes, ...) -- Read from C cache (4 bytes @ 0x20000A18) -- Data:  D0 09 00 20  returns 0x00 (0000ms, 0759ms total)
T142C 017:459 JLINK_ReadMem (0x0800DF8E, 0x0002 Bytes, ...) -- CPU_ReadMem(64 bytes @ 0x0800DF80) -- Updating C cache (64 bytes @ 0x0800DF80) -- Read from C cache (2 bytes @ 0x0800DF8E) -- Data:  02 F0  returns 0x00 (0001ms, 0760ms total)
T142C 017:460 JLINK_ReadMem (0x0800DF90, 0x003C Bytes, ...) -- CPU_ReadMem(64 bytes @ 0x0800DFC0) -- Updating C cache (64 bytes @ 0x0800DFC0) -- Read from C cache (60 bytes @ 0x0800DF90) -- Data:  CF FB FB 68 DB 68 FA 68 12 69 10 46 98 47 FB 68 ...  returns 0x00 (0002ms, 0762ms total)
T0EB8 021:776 JLINK_Step() -- Read from C cache (2 bytes @ 0x0800DF92) -- CPU_ReadMem(4 bytes @ 0xE0001004) -- CPU_ReadMem(64 bytes @ 0x200023C0) -- Updating C cache (64 bytes @ 0x200023C0) -- Read from C cache (4 bytes @ 0x200023DC) -- Simulated  returns 0x00 (0005ms, 0767ms total)
T0EB8 021:781 JLINK_ReadReg(R15 (PC))  returns 0x0800DF94 (0000ms, 0767ms total)
T0EB8 021:781 JLINK_ReadReg(XPSR)  returns 0x01000000 (0000ms, 0767ms total)
T0EB8 021:781 JLINK_Step() -- Read from C cache (2 bytes @ 0x0800DF94) -- Read from C cache (4 bytes @ 0x20000A2C) -- Simulated  returns 0x00 (0000ms, 0767ms total)
T0EB8 021:781 JLINK_ReadReg(R15 (PC))  returns 0x0800DF96 (0000ms, 0767ms total)
T0EB8 021:781 JLINK_ReadReg(XPSR)  returns 0x01000000 (0000ms, 0767ms total)
T0EB8 021:781 JLINK_Step() -- Read from C cache (2 bytes @ 0x0800DF96) -- Read from C cache (4 bytes @ 0x200023DC) -- Simulated  returns 0x00 (0000ms, 0767ms total)
T0EB8 021:781 JLINK_ReadReg(R15 (PC))  returns 0x0800DF98 (0000ms, 0767ms total)
T0EB8 021:781 JLINK_ReadReg(XPSR)  returns 0x01000000 (0000ms, 0767ms total)
T0EB8 021:781 JLINK_Step() -- Read from C cache (2 bytes @ 0x0800DF98) -- Read from C cache (4 bytes @ 0x20000A30) -- Simulated  returns 0x00 (0000ms, 0767ms total)
T0EB8 021:781 JLINK_ReadReg(R15 (PC))  returns 0x0800DF9A (0000ms, 0767ms total)
T0EB8 021:781 JLINK_ReadReg(XPSR)  returns 0x01000000 (0000ms, 0767ms total)
T0EB8 021:781 JLINK_Step() -- Read from C cache (2 bytes @ 0x0800DF9A) -- Simulated  returns 0x00 (0000ms, 0767ms total)
T0EB8 021:781 JLINK_ReadReg(R15 (PC))  returns 0x0800DF9C (0001ms, 0768ms total)
T0EB8 021:782 JLINK_ReadReg(XPSR)  returns 0x01000000 (0000ms, 0768ms total)
T0EB8 021:782 JLINK_SetBPEx(Addr = 0x0800DF9E, Type = 0xFFFFFFF2)  returns 0x00000004 (0000ms, 0768ms total)
T0EB8 021:782 JLINK_SetBPEx(Addr = 0x0800DF84, Type = 0xFFFFFFF2)  returns 0x00000005 (0000ms, 0768ms total)
T0EB8 021:782 JLINK_Go() -- CPU_WriteMem(4 bytes @ 0xE0002008) -- CPU_WriteMem(4 bytes @ 0xE0001004) (0004ms, 0772ms total)
T0EB8 021:886 JLINK_IsHalted()  returns TRUE (0004ms, 0776ms total)
T0EB8 021:890 JLINK_Halt()  returns 0x00 (0000ms, 0772ms total)
T0EB8 021:890 JLINK_IsHalted()  returns TRUE (0000ms, 0772ms total)
T0EB8 021:890 JLINK_IsHalted()  returns TRUE (0000ms, 0772ms total)
T0EB8 021:890 JLINK_IsHalted()  returns TRUE (0000ms, 0772ms total)
T0EB8 021:890 JLINK_ReadReg(R15 (PC))  returns 0x0800DF9E (0000ms, 0772ms total)
T0EB8 021:890 JLINK_ReadReg(XPSR)  returns 0x01000000 (0000ms, 0772ms total)
T0EB8 021:890 JLINK_ClrBPEx(BPHandle = 0x00000004)  returns 0x00 (0000ms, 0772ms total)
T0EB8 021:890 JLINK_ClrBPEx(BPHandle = 0x00000005)  returns 0x00 (0000ms, 0772ms total)
T0EB8 021:890 JLINK_ReadMemU32(0xE000ED30, 0x0001 Items, ...) -- CPU_ReadMem(4 bytes @ 0xE000ED30) -- Data:  02 00 00 00  returns 0x01 (0001ms, 0773ms total)
T0EB8 021:891 JLINK_ReadMemU32(0xE0001028, 0x0001 Items, ...) -- CPU_ReadMem(4 bytes @ 0xE0001028) -- Data:  00 00 00 00  returns 0x01 (0001ms, 0774ms total)
T0EB8 021:892 JLINK_ReadMemU32(0xE0001038, 0x0001 Items, ...) -- CPU_ReadMem(4 bytes @ 0xE0001038) -- Data:  00 02 00 00  returns 0x01 (0001ms, 0775ms total)
T0EB8 021:893 JLINK_ReadMemU32(0xE0001048, 0x0001 Items, ...) -- CPU_ReadMem(4 bytes @ 0xE0001048) -- Data:  00 00 00 00  returns 0x01 (0001ms, 0776ms total)
T0EB8 021:894 JLINK_ReadMemU32(0xE0001058, 0x0001 Items, ...) -- CPU_ReadMem(4 bytes @ 0xE0001058) -- Data:  00 00 00 00  returns 0x01 (0001ms, 0777ms total)
T0EB8 021:895 JLINK_ReadReg(R0)  returns 0x00000019 (0000ms, 0777ms total)
T0EB8 021:895 JLINK_ReadReg(R1)  returns 0x00000080 (0000ms, 0777ms total)
T0EB8 021:895 JLINK_ReadReg(R2)  returns 0x00000080 (0000ms, 0777ms total)
T0EB8 021:895 JLINK_ReadReg(R3)  returns 0x00000019 (0000ms, 0777ms total)
T0EB8 021:895 JLINK_ReadReg(R4)  returns 0x00000000 (0000ms, 0777ms total)
T0EB8 021:895 JLINK_ReadReg(R5)  returns 0x05050505 (0000ms, 0777ms total)
T0EB8 021:895 JLINK_ReadReg(R6)  returns 0x06060606 (0000ms, 0777ms total)
T0EB8 021:895 JLINK_ReadReg(R7)  returns 0x200023D0 (0001ms, 0778ms total)
T0EB8 021:896 JLINK_ReadReg(R8)  returns 0x08080808 (0000ms, 0778ms total)
T0EB8 021:896 JLINK_ReadReg(R9)  returns 0x09090909 (0000ms, 0778ms total)
T0EB8 021:896 JLINK_ReadReg(R10)  returns 0x10101010 (0000ms, 0778ms total)
T0EB8 021:896 JLINK_ReadReg(R11)  returns 0x0000001C (0000ms, 0778ms total)
T0EB8 021:896 JLINK_ReadReg(R12)  returns 0x00000000 (0000ms, 0778ms total)
T0EB8 021:896 JLINK_ReadReg(R13 (SP))  returns 0x200023D0 (0000ms, 0778ms total)
T0EB8 021:896 JLINK_ReadReg(R14)  returns 0x08014397 (0000ms, 0778ms total)
T0EB8 021:896 JLINK_ReadReg(R15 (PC))  returns 0x0800DF9E (0000ms, 0778ms total)
T0EB8 021:896 JLINK_ReadReg(XPSR)  returns 0x01000000 (0000ms, 0778ms total)
T0EB8 021:896 JLINK_ReadReg(MSP)  returns 0x2000FFC0 (0000ms, 0778ms total)
T0EB8 021:896 JLINK_ReadReg(PSP)  returns 0x200023D0 (0000ms, 0778ms total)
T0EB8 021:896 JLINK_ReadReg(CFBP)  returns 0x02000000 (0000ms, 0778ms total)
T142C 021:896 JLINK_ReadMem (0x20000600, 0x0008 Bytes, ...) -- CPU_ReadMem(64 bytes @ 0x20000600) -- Updating C cache (64 bytes @ 0x20000600) -- Read from C cache (8 bytes @ 0x20000600) -- Data:  1C 00 00 00 00 00 00 00  returns 0x00 (0002ms, 0780ms total)
T142C 021:898 JLINK_ReadMem (0x20000A1C, 0x0004 Bytes, ...) -- CPU_ReadMem(64 bytes @ 0x20000A00) -- Updating C cache (64 bytes @ 0x20000A00) -- Read from C cache (4 bytes @ 0x20000A1C) -- Data:  D0 09 00 20  returns 0x00 (0002ms, 0782ms total)
T142C 021:900 JLINK_ReadMem (0x20000A18, 0x0004 Bytes, ...) -- Read from C cache (4 bytes @ 0x20000A18) -- Data:  D0 09 00 20  returns 0x00 (0000ms, 0782ms total)
T142C 021:904 JLINK_ReadMem (0x0800DF9A, 0x0002 Bytes, ...) -- CPU_ReadMem(64 bytes @ 0x0800DF80) -- Updating C cache (64 bytes @ 0x0800DF80) -- Read from C cache (2 bytes @ 0x0800DF9A) -- Data:  10 46  returns 0x00 (0002ms, 0784ms total)
T142C 021:906 JLINK_ReadMem (0x0800DF9C, 0x003C Bytes, ...) -- CPU_ReadMem(64 bytes @ 0x0800DFC0) -- Updating C cache (64 bytes @ 0x0800DFC0) -- Read from C cache (60 bytes @ 0x0800DF9C) -- Data:  98 47 FB 68 1B 78 01 2B 1F D0 02 2B 0A D0 00 2B ...  returns 0x00 (0002ms, 0786ms total)
T0EB8 024:191 JLINK_Step() -- Read from C cache (2 bytes @ 0x0800DF9E) -- CPU_ReadMem(4 bytes @ 0xE0001004) -- CPU_ReadMem(64 bytes @ 0x200023C0) -- Updating C cache (64 bytes @ 0x200023C0) -- Read from C cache (4 bytes @ 0x200023DC) -- Simulated  returns 0x00 (0005ms, 0791ms total)
T0EB8 024:196 JLINK_ReadReg(R15 (PC))  returns 0x0800DFA0 (0000ms, 0791ms total)
T0EB8 024:196 JLINK_ReadReg(XPSR)  returns 0x01000000 (0000ms, 0791ms total)
T0EB8 024:196 JLINK_Step() -- Read from C cache (2 bytes @ 0x0800DFA0) -- Read from C cache (1 bytes @ 0x20000A20) -- Simulated  returns 0x00 (0000ms, 0791ms total)
T0EB8 024:196 JLINK_ReadReg(R15 (PC))  returns 0x0800DFA2 (0000ms, 0791ms total)
T0EB8 024:196 JLINK_ReadReg(XPSR)  returns 0x01000000 (0000ms, 0791ms total)
T0EB8 024:196 JLINK_Step() -- Read from C cache (2 bytes @ 0x0800DFA2) -- Simulated  returns 0x00 (0000ms, 0791ms total)
T0EB8 024:196 JLINK_ReadReg(R15 (PC))  returns 0x0800DFA4 (0000ms, 0791ms total)
T0EB8 024:196 JLINK_ReadReg(XPSR)  returns 0x81000000 (0000ms, 0791ms total)
T0EB8 024:196 JLINK_Step() -- Read from C cache (2 bytes @ 0x0800DFA4) -- Simulated  returns 0x00 (0000ms, 0791ms total)
T0EB8 024:196 JLINK_ReadReg(R15 (PC))  returns 0x0800DFA6 (0000ms, 0791ms total)
T0EB8 024:196 JLINK_ReadReg(XPSR)  returns 0x81000000 (0000ms, 0791ms total)
T0EB8 024:196 JLINK_Step() -- Read from C cache (2 bytes @ 0x0800DFA6) -- Simulated  returns 0x00 (0000ms, 0791ms total)
T0EB8 024:196 JLINK_ReadReg(R15 (PC))  returns 0x0800DFA8 (0000ms, 0791ms total)
T0EB8 024:196 JLINK_ReadReg(XPSR)  returns 0x81000000 (0000ms, 0791ms total)
T0EB8 024:196 JLINK_Step() -- Read from C cache (2 bytes @ 0x0800DFA8) -- Simulated  returns 0x00 (0000ms, 0791ms total)
T0EB8 024:196 JLINK_ReadReg(R15 (PC))  returns 0x0800DFAA (0000ms, 0791ms total)
T0EB8 024:196 JLINK_ReadReg(XPSR)  returns 0x81000000 (0000ms, 0791ms total)
T0EB8 024:196 JLINK_Step() -- Read from C cache (2 bytes @ 0x0800DFAA) -- Simulated  returns 0x00 (0000ms, 0791ms total)
T0EB8 024:196 JLINK_ReadReg(R15 (PC))  returns 0x0800DFAC (0000ms, 0791ms total)
T0EB8 024:196 JLINK_ReadReg(XPSR)  returns 0x61000000 (0000ms, 0791ms total)
T0EB8 024:196 JLINK_Step() -- Read from C cache (2 bytes @ 0x0800DFAC) -- Simulated  returns 0x00 (0000ms, 0791ms total)
T0EB8 024:196 JLINK_ReadReg(R15 (PC))  returns 0x0800DFAE (0000ms, 0791ms total)
T0EB8 024:196 JLINK_ReadReg(XPSR)  returns 0x61000000 (0000ms, 0791ms total)
T0EB8 024:196 JLINK_ReadReg(R0)  returns 0x00000019 (0000ms, 0791ms total)
T0EB8 024:196 JLINK_ReadReg(R1)  returns 0x00000080 (0000ms, 0791ms total)
T0EB8 024:196 JLINK_ReadReg(R2)  returns 0x00000080 (0001ms, 0792ms total)
T0EB8 024:197 JLINK_ReadReg(R3)  returns 0x00000000 (0000ms, 0792ms total)
T0EB8 024:197 JLINK_ReadReg(R4)  returns 0x00000000 (0000ms, 0792ms total)
T0EB8 024:197 JLINK_ReadReg(R5)  returns 0x05050505 (0000ms, 0792ms total)
T0EB8 024:197 JLINK_ReadReg(R6)  returns 0x06060606 (0000ms, 0792ms total)
T0EB8 024:197 JLINK_ReadReg(R7)  returns 0x200023D0 (0000ms, 0792ms total)
T0EB8 024:197 JLINK_ReadReg(R8)  returns 0x08080808 (0000ms, 0792ms total)
T0EB8 024:197 JLINK_ReadReg(R9)  returns 0x09090909 (0000ms, 0792ms total)
T0EB8 024:197 JLINK_ReadReg(R10)  returns 0x10101010 (0000ms, 0792ms total)
T0EB8 024:197 JLINK_ReadReg(R11)  returns 0x0000001C (0000ms, 0792ms total)
T0EB8 024:197 JLINK_ReadReg(R12)  returns 0x00000000 (0000ms, 0792ms total)
T0EB8 024:197 JLINK_ReadReg(R13 (SP))  returns 0x200023D0 (0000ms, 0792ms total)
T0EB8 024:197 JLINK_ReadReg(R14)  returns 0x08014397 (0000ms, 0792ms total)
T0EB8 024:197 JLINK_ReadReg(R15 (PC))  returns 0x0800DFAE (0000ms, 0792ms total)
T0EB8 024:197 JLINK_ReadReg(XPSR)  returns 0x61000000 (0000ms, 0792ms total)
T0EB8 024:197 JLINK_ReadReg(MSP)  returns 0x2000FFC0 (0000ms, 0792ms total)
T0EB8 024:197 JLINK_ReadReg(PSP)  returns 0x200023D0 (0000ms, 0792ms total)
T0EB8 024:197 JLINK_ReadReg(CFBP)  returns 0x02000000 (0000ms, 0792ms total)
T142C 024:198 JLINK_ReadMem (0x20000600, 0x0008 Bytes, ...) -- Read from C cache (8 bytes @ 0x20000600) -- Data:  1C 00 00 00 00 00 00 00  returns 0x00 (0000ms, 0792ms total)
T142C 024:198 JLINK_ReadMem (0x20000A1C, 0x0004 Bytes, ...) -- Read from C cache (4 bytes @ 0x20000A1C) -- Data:  D0 09 00 20  returns 0x00 (0001ms, 0793ms total)
T142C 024:199 JLINK_ReadMem (0x20000A18, 0x0004 Bytes, ...) -- Read from C cache (4 bytes @ 0x20000A18) -- Data:  D0 09 00 20  returns 0x00 (0000ms, 0793ms total)
T142C 024:204 JLINK_ReadMem (0x0800DFA2, 0x0002 Bytes, ...) -- Read from C cache (2 bytes @ 0x0800DFA2) -- Data:  01 2B  returns 0x00 (0000ms, 0793ms total)
T142C 024:204 JLINK_ReadMem (0x0800DFA4, 0x003C Bytes, ...) -- Read from C cache (60 bytes @ 0x0800DFA4) -- Data:  1F D0 02 2B 0A D0 00 2B 30 D1 FB 68 5B 68 00 2B ...  returns 0x00 (0000ms, 0793ms total)
T0EB8 024:983 JLINK_Step() -- Read from C cache (2 bytes @ 0x0800DFAE) -- Read from C cache (4 bytes @ 0x200023DC) -- Simulated  returns 0x00 (0001ms, 0794ms total)
T0EB8 024:984 JLINK_ReadReg(R15 (PC))  returns 0x0800DFB0 (0001ms, 0795ms total)
T0EB8 024:985 JLINK_ReadReg(XPSR)  returns 0x61000000 (0000ms, 0795ms total)
T0EB8 024:985 JLINK_Step() -- Read from C cache (2 bytes @ 0x0800DFB0) -- Read from C cache (4 bytes @ 0x20000A24) -- Simulated  returns 0x00 (0000ms, 0795ms total)
T0EB8 024:985 JLINK_ReadReg(R15 (PC))  returns 0x0800DFB2 (0000ms, 0795ms total)
T0EB8 024:985 JLINK_ReadReg(XPSR)  returns 0x61000000 (0000ms, 0795ms total)
T0EB8 024:985 JLINK_Step() -- Read from C cache (2 bytes @ 0x0800DFB2) -- Simulated  returns 0x00 (0000ms, 0795ms total)
T0EB8 024:985 JLINK_ReadReg(R15 (PC))  returns 0x0800DFB4 (0000ms, 0795ms total)
T0EB8 024:985 JLINK_ReadReg(XPSR)  returns 0x21000000 (0000ms, 0795ms total)
T0EB8 024:985 JLINK_Step() -- Read from C cache (2 bytes @ 0x0800DFB4) -- Simulated  returns 0x00 (0000ms, 0795ms total)
T0EB8 024:985 JLINK_ReadReg(R15 (PC))  returns 0x0800E01C (0000ms, 0795ms total)
T0EB8 024:985 JLINK_ReadReg(XPSR)  returns 0x21000000 (0000ms, 0795ms total)
T0EB8 024:985 JLINK_ReadReg(R0)  returns 0x00000019 (0000ms, 0795ms total)
T0EB8 024:985 JLINK_ReadReg(R1)  returns 0x00000080 (0000ms, 0795ms total)
T0EB8 024:985 JLINK_ReadReg(R2)  returns 0x00000080 (0000ms, 0795ms total)
T0EB8 024:985 JLINK_ReadReg(R3)  returns 0x00000008 (0000ms, 0795ms total)
T0EB8 024:985 JLINK_ReadReg(R4)  returns 0x00000000 (0000ms, 0795ms total)
T0EB8 024:985 JLINK_ReadReg(R5)  returns 0x05050505 (0000ms, 0795ms total)
T0EB8 024:985 JLINK_ReadReg(R6)  returns 0x06060606 (0000ms, 0795ms total)
T0EB8 024:985 JLINK_ReadReg(R7)  returns 0x200023D0 (0000ms, 0795ms total)
T0EB8 024:985 JLINK_ReadReg(R8)  returns 0x08080808 (0000ms, 0795ms total)
T0EB8 024:985 JLINK_ReadReg(R9)  returns 0x09090909 (0000ms, 0795ms total)
T0EB8 024:985 JLINK_ReadReg(R10)  returns 0x10101010 (0000ms, 0795ms total)
T0EB8 024:985 JLINK_ReadReg(R11)  returns 0x0000001C (0000ms, 0795ms total)
T0EB8 024:985 JLINK_ReadReg(R12)  returns 0x00000000 (0000ms, 0795ms total)
T0EB8 024:985 JLINK_ReadReg(R13 (SP))  returns 0x200023D0 (0000ms, 0795ms total)
T0EB8 024:985 JLINK_ReadReg(R14)  returns 0x08014397 (0000ms, 0795ms total)
T0EB8 024:985 JLINK_ReadReg(R15 (PC))  returns 0x0800E01C (0000ms, 0795ms total)
T0EB8 024:985 JLINK_ReadReg(XPSR)  returns 0x21000000 (0001ms, 0796ms total)
T0EB8 024:986 JLINK_ReadReg(MSP)  returns 0x2000FFC0 (0000ms, 0796ms total)
T0EB8 024:986 JLINK_ReadReg(PSP)  returns 0x200023D0 (0000ms, 0796ms total)
T0EB8 024:986 JLINK_ReadReg(CFBP)  returns 0x02000000 (0000ms, 0796ms total)
T142C 024:987 JLINK_ReadMem (0x20000600, 0x0008 Bytes, ...) -- Read from C cache (8 bytes @ 0x20000600) -- Data:  1C 00 00 00 00 00 00 00  returns 0x00 (0000ms, 0796ms total)
T142C 024:987 JLINK_ReadMem (0x20000A1C, 0x0004 Bytes, ...) -- Read from C cache (4 bytes @ 0x20000A1C) -- Data:  D0 09 00 20  returns 0x00 (0000ms, 0796ms total)
T142C 024:987 JLINK_ReadMem (0x20000A18, 0x0004 Bytes, ...) -- Read from C cache (4 bytes @ 0x20000A18) -- Data:  D0 09 00 20  returns 0x00 (0000ms, 0796ms total)
T142C 024:992 JLINK_ReadMem (0x0800E01A, 0x0002 Bytes, ...) -- CPU_ReadMem(64 bytes @ 0x0800E000) -- Updating C cache (64 bytes @ 0x0800E000) -- Read from C cache (2 bytes @ 0x0800E01A) -- Data:  02 E0  returns 0x00 (0001ms, 0797ms total)
T142C 024:993 JLINK_ReadMem (0x0800E01C, 0x003C Bytes, ...) -- CPU_ReadMem(64 bytes @ 0x0800E040) -- Updating C cache (64 bytes @ 0x0800E040) -- Read from C cache (60 bytes @ 0x0800E01C) -- Data:  00 BF 00 E0 00 BF 07 F1 0C 03 01 22 19 46 02 48 ...  returns 0x00 (0002ms, 0799ms total)
T0EB8 025:912 JLINK_Step() -- Read from C cache (2 bytes @ 0x0800E01C) -- Simulated  returns 0x00 (0003ms, 0802ms total)
T0EB8 025:915 JLINK_ReadReg(R15 (PC))  returns 0x0800E01E (0000ms, 0802ms total)
T0EB8 025:915 JLINK_ReadReg(XPSR)  returns 0x21000000 (0000ms, 0802ms total)
T0EB8 025:915 JLINK_ReadReg(R0)  returns 0x00000019 (0000ms, 0802ms total)
T0EB8 025:915 JLINK_ReadReg(R1)  returns 0x00000080 (0000ms, 0802ms total)
T0EB8 025:915 JLINK_ReadReg(R2)  returns 0x00000080 (0000ms, 0802ms total)
T0EB8 025:915 JLINK_ReadReg(R3)  returns 0x00000008 (0000ms, 0802ms total)
T0EB8 025:915 JLINK_ReadReg(R4)  returns 0x00000000 (0000ms, 0802ms total)
T0EB8 025:915 JLINK_ReadReg(R5)  returns 0x05050505 (0000ms, 0802ms total)
T0EB8 025:915 JLINK_ReadReg(R6)  returns 0x06060606 (0000ms, 0802ms total)
T0EB8 025:915 JLINK_ReadReg(R7)  returns 0x200023D0 (0000ms, 0802ms total)
T0EB8 025:915 JLINK_ReadReg(R8)  returns 0x08080808 (0000ms, 0802ms total)
T0EB8 025:915 JLINK_ReadReg(R9)  returns 0x09090909 (0000ms, 0802ms total)
T0EB8 025:915 JLINK_ReadReg(R10)  returns 0x10101010 (0000ms, 0802ms total)
T0EB8 025:915 JLINK_ReadReg(R11)  returns 0x0000001C (0000ms, 0802ms total)
T0EB8 025:915 JLINK_ReadReg(R12)  returns 0x00000000 (0000ms, 0802ms total)
T0EB8 025:915 JLINK_ReadReg(R13 (SP))  returns 0x200023D0 (0000ms, 0802ms total)
T0EB8 025:915 JLINK_ReadReg(R14)  returns 0x08014397 (0000ms, 0802ms total)
T0EB8 025:916 JLINK_ReadReg(R15 (PC))  returns 0x0800E01E (0000ms, 0803ms total)
T0EB8 025:916 JLINK_ReadReg(XPSR)  returns 0x21000000 (0000ms, 0803ms total)
T0EB8 025:916 JLINK_ReadReg(MSP)  returns 0x2000FFC0 (0000ms, 0803ms total)
T0EB8 025:916 JLINK_ReadReg(PSP)  returns 0x200023D0 (0000ms, 0803ms total)
T0EB8 025:916 JLINK_ReadReg(CFBP)  returns 0x02000000 (0000ms, 0803ms total)
T142C 025:916 JLINK_ReadMem (0x20000600, 0x0008 Bytes, ...) -- Read from C cache (8 bytes @ 0x20000600) -- Data:  1C 00 00 00 00 00 00 00  returns 0x00 (0001ms, 0804ms total)
T142C 025:917 JLINK_ReadMem (0x20000A1C, 0x0004 Bytes, ...) -- Read from C cache (4 bytes @ 0x20000A1C) -- Data:  D0 09 00 20  returns 0x00 (0000ms, 0804ms total)
T142C 025:917 JLINK_ReadMem (0x20000A18, 0x0004 Bytes, ...) -- Read from C cache (4 bytes @ 0x20000A18) -- Data:  D0 09 00 20  returns 0x00 (0000ms, 0804ms total)
T142C 025:921 JLINK_ReadMem (0x0800E01E, 0x0002 Bytes, ...) -- Read from C cache (2 bytes @ 0x0800E01E) -- Data:  00 E0  returns 0x00 (0000ms, 0804ms total)
T142C 025:921 JLINK_ReadMem (0x0800E020, 0x003C Bytes, ...) -- Read from C cache (60 bytes @ 0x0800E020) -- Data:  00 BF 07 F1 0C 03 01 22 19 46 02 48 02 F0 1E FB ...  returns 0x00 (0001ms, 0805ms total)
T0EB8 026:832 JLINK_Step() -- Read from C cache (2 bytes @ 0x0800E01E) -- Simulated  returns 0x00 (0001ms, 0806ms total)
T0EB8 026:833 JLINK_ReadReg(R15 (PC))  returns 0x0800E022 (0000ms, 0806ms total)
T0EB8 026:833 JLINK_ReadReg(XPSR)  returns 0x21000000 (0000ms, 0806ms total)
T0EB8 026:833 JLINK_ReadReg(R0)  returns 0x00000019 (0000ms, 0806ms total)
T0EB8 026:833 JLINK_ReadReg(R1)  returns 0x00000080 (0000ms, 0806ms total)
T0EB8 026:833 JLINK_ReadReg(R2)  returns 0x00000080 (0000ms, 0806ms total)
T0EB8 026:833 JLINK_ReadReg(R3)  returns 0x00000008 (0000ms, 0806ms total)
T0EB8 026:833 JLINK_ReadReg(R4)  returns 0x00000000 (0000ms, 0806ms total)
T0EB8 026:833 JLINK_ReadReg(R5)  returns 0x05050505 (0000ms, 0806ms total)
T0EB8 026:833 JLINK_ReadReg(R6)  returns 0x06060606 (0000ms, 0806ms total)
T0EB8 026:833 JLINK_ReadReg(R7)  returns 0x200023D0 (0001ms, 0807ms total)
T0EB8 026:834 JLINK_ReadReg(R8)  returns 0x08080808 (0000ms, 0807ms total)
T0EB8 026:834 JLINK_ReadReg(R9)  returns 0x09090909 (0000ms, 0807ms total)
T0EB8 026:834 JLINK_ReadReg(R10)  returns 0x10101010 (0000ms, 0807ms total)
T0EB8 026:834 JLINK_ReadReg(R11)  returns 0x0000001C (0000ms, 0807ms total)
T0EB8 026:834 JLINK_ReadReg(R12)  returns 0x00000000 (0000ms, 0807ms total)
T0EB8 026:834 JLINK_ReadReg(R13 (SP))  returns 0x200023D0 (0000ms, 0807ms total)
T0EB8 026:834 JLINK_ReadReg(R14)  returns 0x08014397 (0000ms, 0807ms total)
T0EB8 026:834 JLINK_ReadReg(R15 (PC))  returns 0x0800E022 (0000ms, 0807ms total)
T0EB8 026:834 JLINK_ReadReg(XPSR)  returns 0x21000000 (0000ms, 0807ms total)
T0EB8 026:834 JLINK_ReadReg(MSP)  returns 0x2000FFC0 (0000ms, 0807ms total)
T0EB8 026:834 JLINK_ReadReg(PSP)  returns 0x200023D0 (0000ms, 0807ms total)
T0EB8 026:834 JLINK_ReadReg(CFBP)  returns 0x02000000 (0000ms, 0807ms total)
T142C 026:836 JLINK_ReadMem (0x20000600, 0x0008 Bytes, ...) -- Read from C cache (8 bytes @ 0x20000600) -- Data:  1C 00 00 00 00 00 00 00  returns 0x00 (0000ms, 0807ms total)
T142C 026:836 JLINK_ReadMem (0x20000A1C, 0x0004 Bytes, ...) -- Read from C cache (4 bytes @ 0x20000A1C) -- Data:  D0 09 00 20  returns 0x00 (0000ms, 0807ms total)
T142C 026:836 JLINK_ReadMem (0x20000A18, 0x0004 Bytes, ...) -- Read from C cache (4 bytes @ 0x20000A18) -- Data:  D0 09 00 20  returns 0x00 (0000ms, 0807ms total)
T142C 026:840 JLINK_ReadMem (0x0800E020, 0x003C Bytes, ...) -- Read from C cache (60 bytes @ 0x0800E020) -- Data:  00 BF 07 F1 0C 03 01 22 19 46 02 48 02 F0 1E FB ...  returns 0x00 (0000ms, 0807ms total)
T0EB8 028:240 JLINK_Step() -- Read from C cache (2 bytes @ 0x0800E022) -- Read from C cache (2 bytes @ 0x0800E024) -- Simulated  returns 0x00 (0002ms, 0809ms total)
T0EB8 028:242 JLINK_ReadReg(R15 (PC))  returns 0x0800E026 (0000ms, 0809ms total)
T0EB8 028:242 JLINK_ReadReg(XPSR)  returns 0x21000000 (0000ms, 0809ms total)
T0EB8 028:242 JLINK_Step() -- Read from C cache (2 bytes @ 0x0800E026) -- Simulated  returns 0x00 (0000ms, 0809ms total)
T0EB8 028:243 JLINK_ReadReg(R15 (PC))  returns 0x0800E028 (0000ms, 0809ms total)
T0EB8 028:243 JLINK_ReadReg(XPSR)  returns 0x21000000 (0000ms, 0809ms total)
T0EB8 028:243 JLINK_Step() -- Read from C cache (2 bytes @ 0x0800E028) -- Simulated  returns 0x00 (0000ms, 0809ms total)
T0EB8 028:243 JLINK_ReadReg(R15 (PC))  returns 0x0800E02A (0000ms, 0809ms total)
T0EB8 028:243 JLINK_ReadReg(XPSR)  returns 0x21000000 (0000ms, 0809ms total)
T0EB8 028:243 JLINK_Step() -- Read from C cache (2 bytes @ 0x0800E02A) -- Read from C cache (4 bytes @ 0x0800E034) -- Simulated  returns 0x00 (0000ms, 0809ms total)
T0EB8 028:243 JLINK_ReadReg(R15 (PC))  returns 0x0800E02C (0000ms, 0809ms total)
T0EB8 028:243 JLINK_ReadReg(XPSR)  returns 0x21000000 (0000ms, 0809ms total)
T0EB8 028:243 JLINK_SetBPEx(Addr = 0x0800E030, Type = 0xFFFFFFF2)  returns 0x00000006 (0000ms, 0809ms total)
T0EB8 028:243 JLINK_SetBPEx(Addr = 0x0800DF84, Type = 0xFFFFFFF2)  returns 0x00000007 (0000ms, 0809ms total)
T0EB8 028:243 JLINK_Go() -- CPU_WriteMem(4 bytes @ 0xE0002008) -- CPU_WriteMem(4 bytes @ 0xE0001004) (0004ms, 0813ms total)
T0EB8 028:347 JLINK_IsHalted()  returns TRUE (0004ms, 0817ms total)
T0EB8 028:351 JLINK_Halt()  returns 0x00 (0000ms, 0813ms total)
T0EB8 028:351 JLINK_IsHalted()  returns TRUE (0000ms, 0813ms total)
T0EB8 028:351 JLINK_IsHalted()  returns TRUE (0000ms, 0813ms total)
T0EB8 028:351 JLINK_IsHalted()  returns TRUE (0000ms, 0813ms total)
T0EB8 028:351 JLINK_ReadReg(R15 (PC))  returns 0x0800E030 (0000ms, 0813ms total)
T0EB8 028:351 JLINK_ReadReg(XPSR)  returns 0x01000000 (0000ms, 0813ms total)
T0EB8 028:351 JLINK_ClrBPEx(BPHandle = 0x00000006)  returns 0x00 (0000ms, 0813ms total)
T0EB8 028:351 JLINK_ClrBPEx(BPHandle = 0x00000007)  returns 0x00 (0000ms, 0813ms total)
T0EB8 028:351 JLINK_ReadMemU32(0xE000ED30, 0x0001 Items, ...) -- CPU_ReadMem(4 bytes @ 0xE000ED30) -- Data:  02 00 00 00  returns 0x01 (0001ms, 0814ms total)
T0EB8 028:352 JLINK_ReadMemU32(0xE0001028, 0x0001 Items, ...) -- CPU_ReadMem(4 bytes @ 0xE0001028) -- Data:  00 00 00 00  returns 0x01 (0001ms, 0815ms total)
T0EB8 028:353 JLINK_ReadMemU32(0xE0001038, 0x0001 Items, ...) -- CPU_ReadMem(4 bytes @ 0xE0001038) -- Data:  00 02 00 00  returns 0x01 (0001ms, 0816ms total)
T0EB8 028:354 JLINK_ReadMemU32(0xE0001048, 0x0001 Items, ...) -- CPU_ReadMem(4 bytes @ 0xE0001048) -- Data:  00 00 00 00  returns 0x01 (0001ms, 0817ms total)
T0EB8 028:355 JLINK_ReadMemU32(0xE0001058, 0x0001 Items, ...) -- CPU_ReadMem(4 bytes @ 0xE0001058) -- Data:  00 00 00 00  returns 0x01 (0001ms, 0818ms total)
T0EB8 028:356 JLINK_Step() -- CPU_ReadMem(64 bytes @ 0x0800E000) -- Updating C cache (64 bytes @ 0x0800E000) -- Read from C cache (2 bytes @ 0x0800E030) -- CPU_ReadMem(4 bytes @ 0xE0001004) -- CPU_WriteMem(4 bytes @ 0x200023EC) -- Simulated  returns 0x00 (0003ms, 0821ms total)
T0EB8 028:359 JLINK_ReadReg(R15 (PC))  returns 0x0800E032 (0000ms, 0821ms total)
T0EB8 028:359 JLINK_ReadReg(XPSR)  returns 0x01000000 (0000ms, 0821ms total)
T0EB8 028:359 JLINK_ReadReg(R0)  returns 0x00000000 (0000ms, 0821ms total)
T0EB8 028:359 JLINK_ReadReg(R1)  returns 0x00000001 (0000ms, 0821ms total)
T0EB8 028:359 JLINK_ReadReg(R2)  returns 0x20000A48 (0000ms, 0821ms total)
T0EB8 028:359 JLINK_ReadReg(R3)  returns 0x00000000 (0000ms, 0821ms total)
T0EB8 028:359 JLINK_ReadReg(R4)  returns 0x00000000 (0000ms, 0821ms total)
T0EB8 028:359 JLINK_ReadReg(R5)  returns 0x05050505 (0000ms, 0821ms total)
T0EB8 028:359 JLINK_ReadReg(R6)  returns 0x06060606 (0000ms, 0821ms total)
T0EB8 028:359 JLINK_ReadReg(R7)  returns 0x200023D0 (0000ms, 0821ms total)
T0EB8 028:359 JLINK_ReadReg(R8)  returns 0x08080808 (0000ms, 0821ms total)
T0EB8 028:359 JLINK_ReadReg(R9)  returns 0x09090909 (0000ms, 0821ms total)
T0EB8 028:359 JLINK_ReadReg(R10)  returns 0x10101010 (0000ms, 0821ms total)
T0EB8 028:359 JLINK_ReadReg(R11)  returns 0x0000001C (0001ms, 0822ms total)
T0EB8 028:360 JLINK_ReadReg(R12)  returns 0x00000000 (0000ms, 0822ms total)
T0EB8 028:360 JLINK_ReadReg(R13 (SP))  returns 0x200023D0 (0000ms, 0822ms total)
T0EB8 028:360 JLINK_ReadReg(R14)  returns 0x080106AD (0000ms, 0822ms total)
T0EB8 028:360 JLINK_ReadReg(R15 (PC))  returns 0x0800E032 (0000ms, 0822ms total)
T0EB8 028:360 JLINK_ReadReg(XPSR)  returns 0x01000000 (0000ms, 0822ms total)
T0EB8 028:360 JLINK_ReadReg(MSP)  returns 0x2000FFC0 (0000ms, 0822ms total)
T0EB8 028:360 JLINK_ReadReg(PSP)  returns 0x200023D0 (0000ms, 0822ms total)
T0EB8 028:360 JLINK_ReadReg(CFBP)  returns 0x02000000 (0000ms, 0822ms total)
T142C 028:360 JLINK_ReadMem (0x20000600, 0x0008 Bytes, ...) -- CPU_ReadMem(64 bytes @ 0x20000600) -- Updating C cache (64 bytes @ 0x20000600) -- Read from C cache (8 bytes @ 0x20000600) -- Data:  1C 00 00 00 00 00 00 00  returns 0x00 (0001ms, 0823ms total)
T142C 028:361 JLINK_ReadMem (0x20000A1C, 0x0004 Bytes, ...) -- CPU_ReadMem(64 bytes @ 0x20000A00) -- Updating C cache (64 bytes @ 0x20000A00) -- Read from C cache (4 bytes @ 0x20000A1C) -- Data:  D0 09 00 20  returns 0x00 (0002ms, 0825ms total)
T142C 028:363 JLINK_ReadMem (0x20000A18, 0x0004 Bytes, ...) -- Read from C cache (4 bytes @ 0x20000A18) -- Data:  D0 09 00 20  returns 0x00 (0000ms, 0825ms total)
T142C 028:368 JLINK_ReadMem (0x0800E02C, 0x003C Bytes, ...) -- CPU_ReadMem(64 bytes @ 0x0800E040) -- Updating C cache (64 bytes @ 0x0800E040) -- Read from C cache (60 bytes @ 0x0800E02C) -- Data:  02 F0 1E FB F8 61 8A E7 10 06 00 20 DC 65 01 08 ...  returns 0x00 (0001ms, 0826ms total)
T142C 030:251 JLINK_ReadMem (0x200023EC, 0x0004 Bytes, ...) -- CPU_ReadMem(64 bytes @ 0x200023C0) -- Updating C cache (64 bytes @ 0x200023C0) -- Read from C cache (4 bytes @ 0x200023EC) -- Data:  00 00 00 00  returns 0x00 (0002ms, 0828ms total)
T0EB8 031:472 JLINK_Step() -- Read from C cache (2 bytes @ 0x0800E032) -- Simulated  returns 0x00 (0003ms, 0831ms total)
T0EB8 031:475 JLINK_ReadReg(R15 (PC))  returns 0x0800DF4A (0000ms, 0831ms total)
T0EB8 031:475 JLINK_ReadReg(XPSR)  returns 0x01000000 (0000ms, 0831ms total)
T0EB8 031:476 JLINK_ReadReg(R0)  returns 0x00000000 (0000ms, 0831ms total)
T0EB8 031:476 JLINK_ReadReg(R1)  returns 0x00000001 (0000ms, 0831ms total)
T0EB8 031:476 JLINK_ReadReg(R2)  returns 0x20000A48 (0000ms, 0831ms total)
T0EB8 031:476 JLINK_ReadReg(R3)  returns 0x00000000 (0000ms, 0831ms total)
T0EB8 031:476 JLINK_ReadReg(R4)  returns 0x00000000 (0000ms, 0831ms total)
T0EB8 031:476 JLINK_ReadReg(R5)  returns 0x05050505 (0000ms, 0831ms total)
T0EB8 031:476 JLINK_ReadReg(R6)  returns 0x06060606 (0000ms, 0831ms total)
T0EB8 031:476 JLINK_ReadReg(R7)  returns 0x200023D0 (0000ms, 0831ms total)
T0EB8 031:476 JLINK_ReadReg(R8)  returns 0x08080808 (0000ms, 0831ms total)
T0EB8 031:476 JLINK_ReadReg(R9)  returns 0x09090909 (0000ms, 0831ms total)
T0EB8 031:476 JLINK_ReadReg(R10)  returns 0x10101010 (0000ms, 0831ms total)
T0EB8 031:476 JLINK_ReadReg(R11)  returns 0x0000001C (0000ms, 0831ms total)
T0EB8 031:476 JLINK_ReadReg(R12)  returns 0x00000000 (0000ms, 0831ms total)
T0EB8 031:476 JLINK_ReadReg(R13 (SP))  returns 0x200023D0 (0000ms, 0831ms total)
T0EB8 031:476 JLINK_ReadReg(R14)  returns 0x080106AD (0000ms, 0831ms total)
T0EB8 031:476 JLINK_ReadReg(R15 (PC))  returns 0x0800DF4A (0000ms, 0831ms total)
T0EB8 031:476 JLINK_ReadReg(XPSR)  returns 0x01000000 (0000ms, 0831ms total)
T0EB8 031:476 JLINK_ReadReg(MSP)  returns 0x2000FFC0 (0000ms, 0831ms total)
T0EB8 031:476 JLINK_ReadReg(PSP)  returns 0x200023D0 (0000ms, 0831ms total)
T0EB8 031:476 JLINK_ReadReg(CFBP)  returns 0x02000000 (0000ms, 0831ms total)
T142C 031:477 JLINK_ReadMem (0x20000600, 0x0008 Bytes, ...) -- Read from C cache (8 bytes @ 0x20000600) -- Data:  1C 00 00 00 00 00 00 00  returns 0x00 (0000ms, 0831ms total)
T142C 031:477 JLINK_ReadMem (0x20000A1C, 0x0004 Bytes, ...) -- Read from C cache (4 bytes @ 0x20000A1C) -- Data:  D0 09 00 20  returns 0x00 (0000ms, 0831ms total)
T142C 031:477 JLINK_ReadMem (0x20000A18, 0x0004 Bytes, ...) -- Read from C cache (4 bytes @ 0x20000A18) -- Data:  D0 09 00 20  returns 0x00 (0000ms, 0831ms total)
T142C 031:482 JLINK_ReadMem (0x0800DF3A, 0x0002 Bytes, ...) -- CPU_ReadMem(64 bytes @ 0x0800DF00) -- Updating C cache (64 bytes @ 0x0800DF00) -- Read from C cache (2 bytes @ 0x0800DF3A) -- Data:  07 F1  returns 0x00 (0001ms, 0832ms total)
T142C 031:483 JLINK_ReadMem (0x0800DF3C, 0x003C Bytes, ...) -- CPU_ReadMem(64 bytes @ 0x0800DF40) -- Updating C cache (64 bytes @ 0x0800DF40) -- Read from C cache (60 bytes @ 0x0800DF3C) -- Data:  0C 03 01 22 19 46 3C 48 02 F0 92 FB F8 61 FB 69 ...  returns 0x00 (0002ms, 0834ms total)
T0EB8 032:352 JLINK_Step() -- Read from C cache (2 bytes @ 0x0800DF4A) -- Read from C cache (4 bytes @ 0x200023EC) -- Simulated  returns 0x00 (0001ms, 0835ms total)
T0EB8 032:353 JLINK_ReadReg(R15 (PC))  returns 0x0800DF4C (0000ms, 0835ms total)
T0EB8 032:353 JLINK_ReadReg(XPSR)  returns 0x01000000 (0000ms, 0835ms total)
T0EB8 032:353 JLINK_Step() -- Read from C cache (2 bytes @ 0x0800DF4C) -- Simulated  returns 0x00 (0001ms, 0836ms total)
T0EB8 032:354 JLINK_ReadReg(R15 (PC))  returns 0x0800DF4E (0000ms, 0836ms total)
T0EB8 032:354 JLINK_ReadReg(XPSR)  returns 0x61000000 (0000ms, 0836ms total)
T0EB8 032:354 JLINK_Step() -- Read from C cache (2 bytes @ 0x0800DF4E) -- Simulated  returns 0x00 (0000ms, 0836ms total)
T0EB8 032:354 JLINK_ReadReg(R15 (PC))  returns 0x0800DF58 (0000ms, 0836ms total)
T0EB8 032:354 JLINK_ReadReg(XPSR)  returns 0x61000000 (0000ms, 0836ms total)
T0EB8 032:354 JLINK_ReadReg(R0)  returns 0x00000000 (0000ms, 0836ms total)
T0EB8 032:354 JLINK_ReadReg(R1)  returns 0x00000001 (0000ms, 0836ms total)
T0EB8 032:354 JLINK_ReadReg(R2)  returns 0x20000A48 (0000ms, 0836ms total)
T0EB8 032:354 JLINK_ReadReg(R3)  returns 0x00000000 (0000ms, 0836ms total)
T0EB8 032:354 JLINK_ReadReg(R4)  returns 0x00000000 (0000ms, 0836ms total)
T0EB8 032:354 JLINK_ReadReg(R5)  returns 0x05050505 (0000ms, 0836ms total)
T0EB8 032:354 JLINK_ReadReg(R6)  returns 0x06060606 (0000ms, 0836ms total)
T0EB8 032:354 JLINK_ReadReg(R7)  returns 0x200023D0 (0000ms, 0836ms total)
T0EB8 032:354 JLINK_ReadReg(R8)  returns 0x08080808 (0000ms, 0836ms total)
T0EB8 032:354 JLINK_ReadReg(R9)  returns 0x09090909 (0000ms, 0836ms total)
T0EB8 032:354 JLINK_ReadReg(R10)  returns 0x10101010 (0000ms, 0836ms total)
T0EB8 032:354 JLINK_ReadReg(R11)  returns 0x0000001C (0000ms, 0836ms total)
T0EB8 032:354 JLINK_ReadReg(R12)  returns 0x00000000 (0000ms, 0836ms total)
